Time [s],Value,Parity Error,Framing Error
0.746722875000000,0x00,,
0.747269541666667,0x01,,Error
0.747442458333333,0x00,,Error
0.747580458333333,0x00,,Error
0.748493583333333,0xFF,,Error
3.031798333333333,0xFA,,
3.031885500000000,0x12,,
3.031972666666667,0x01,,
3.032059833333333,0x01,,
3.032147000000000,0x17,,
3.032234166666667,0x93,,
3.032321333333333,0x96,,
3.032408500000000,0xFD,,
3.046860166666667,0xFA,,
3.046947375000000,0x14,,
3.047034541666667,0x03,,
3.047121708333334,0xFF,,
3.047208916666666,0x00,,
3.047296083333333,0x17,,
3.047383250000000,0x94,,
3.047470416666667,0x6B,,
3.047557583333333,0xFD,,
3.047644791666666,0xFA,,
3.047731958333333,0x13,,
3.047819125000000,0x01,,
3.047906291666667,0xFF,,
3.047993458333333,0x03,,
3.048080666666667,0xE8,,
3.048167833333333,0x17,,
3.048255000000000,0x95,,
3.048342166666667,0x84,,
3.048429333333333,0xFD,,
3.048516458333333,0xFA,,
3.048603625000000,0x16,,
3.048690791666667,0x13,,
3.048777958333333,0x00,,
3.048865125000000,0x01,,
3.048952291666667,0x17,,
3.049039458333333,0x96,,
3.049126625000000,0x85,,
3.049213833333333,0xFD,,
3.049301000000000,0xFA,,
3.049388166666667,0x16,,
3.049475375000000,0x14,,
3.049562541666667,0x00,,
3.049649708333333,0x01,,
3.049736875000000,0x17,,
3.049824041666667,0x97,,
3.049911208333334,0x83,,
3.049998375000000,0xFD,,
3.050085541666667,0xFA,,
3.050172708333333,0x16,,
3.050259875000000,0x15,,
3.050347041666666,0x00,,
3.050434208333333,0x01,,
3.050521375000000,0x17,,
3.050608541666667,0x98,,
3.050695750000000,0x8D,,
3.050782916666666,0xFD,,
3.050870083333333,0xFA,,
3.050957250000000,0x16,,
3.051044416666667,0x21,,
3.051131583333333,0x02,,
3.051218750000000,0x8A,,
3.051305916666667,0x17,,
3.051393083333333,0x99,,
3.051480250000000,0x31,,
3.051567416666667,0xFD,,
3.051654583333333,0xFA,,
3.051741791666667,0x16,,
3.051828958333333,0x22,,
3.051916166666667,0x04,,
3.052003333333333,0xE2,,
3.052090541666667,0x17,,
3.052177708333333,0x9A,,
3.052264916666667,0x5F,,
3.052352083333334,0xFD,,
3.052439250000000,0xFA,,
3.052526458333333,0x16,,
3.052613625000000,0x23,,
3.052700791666667,0x00,,
3.052787958333333,0x00,,
3.052875125000000,0x17,,
3.052962291666667,0x9B,,
3.053049458333333,0xB9,,
3.053136625000000,0xFD,,
3.053223791666666,0xFA,,
3.053310958333333,0x16,,
3.053398166666667,0x72,,
3.053485333333333,0x04,,
3.053572500000000,0xE2,,
3.053659666666667,0x17,,
3.053746833333333,0x9C,,
3.053834000000000,0x09,,
3.053921166666667,0xFD,,
3.054008333333333,0xFA,,
3.054095500000000,0x16,,
3.054182666666667,0x73,,
3.054269833333333,0x02,,
3.054357000000000,0x8A,,
3.054444208333333,0x17,,
3.054531375000000,0x9D,,
3.054618541666667,0x67,,
3.054705750000000,0xFD,,
3.054792916666667,0xFA,,
3.054880083333333,0x03,,
3.054967250000000,0x00,,
3.055054416666667,0x01,,
3.055141583333334,0x02,,
3.055228750000000,0xD4,,
3.055315916666667,0x17,,
3.055403125000000,0x9E,,
3.055490291666667,0x5D,,
3.055577458333333,0xFD,,
3.149444000000000,0xFA,,
3.149531166666667,0x03,,
3.149618333333333,0x00,,
3.149705500000000,0x01,,
3.149792666666666,0x02,,
3.149879833333333,0xD4,,
3.149967000000000,0x17,,
3.150054166666667,0x9F,,
3.150141291666666,0x5C,,
3.150228458333333,0xFD,,
3.249780833333333,0xFA,,
3.249868000000000,0x03,,
3.249955166666667,0x00,,
3.250042333333333,0x01,,
3.250129458333333,0x02,,
3.250216625000000,0xD4,,
3.250303791666667,0x17,,
3.250390958333333,0xA0,,
3.250478125000000,0x63,,
3.250565291666667,0xFD,,
3.350136500000000,0xFA,,
3.350223666666666,0x03,,
3.350310833333333,0x00,,
3.350398000000000,0x01,,
3.350485166666667,0x02,,
3.350572375000000,0xD4,,
3.350659541666666,0x17,,
3.350746708333333,0xA1,,
3.350833875000000,0x62,,
3.350921083333333,0xFD,,
3.450477666666667,0xFA,,
3.450564833333333,0x03,,
3.450652000000000,0x00,,
3.450739166666667,0x01,,
3.450826333333334,0x02,,
3.450913500000000,0xD4,,
3.451000666666667,0x17,,
3.451087833333333,0xA2,,
3.451175000000000,0x61,,
3.451262166666667,0xFD,,
3.550809458333333,0xFA,,
3.550896625000000,0x03,,
3.550983791666666,0x00,,
3.551070958333333,0x01,,
3.551158125000000,0x02,,
3.551245291666667,0xD4,,
3.551332458333333,0x17,,
3.551419625000000,0xA3,,
3.551506750000000,0x60,,
3.551593916666667,0xFD,,
3.651144291666667,0xFA,,
3.651231458333333,0x03,,
3.651318625000000,0x00,,
3.651405791666666,0x01,,
3.651492958333333,0x02,,
3.651580125000000,0xD4,,
3.651667333333333,0x17,,
3.651754500000000,0xA4,,
3.651841666666667,0x67,,
3.651928833333333,0xFD,,
3.751483583333334,0xFA,,
3.751570750000000,0x03,,
3.751657916666667,0x00,,
3.751745083333333,0x01,,
3.751832291666667,0x02,,
3.751919458333334,0xD4,,
3.752006625000000,0x17,,
3.752093791666667,0xA5,,
3.752181000000000,0x66,,
3.752268166666667,0xFD,,
3.851820208333333,0xFA,,
3.851907375000000,0x03,,
3.851994541666667,0x00,,
3.852081708333333,0x01,,
3.852168875000000,0x02,,
3.852256000000000,0xD4,,
3.852343166666667,0x17,,
3.852430333333333,0xA6,,
3.852517500000000,0x65,,
3.852604625000000,0xFD,,
3.952153458333334,0xFA,,
3.952240625000000,0x03,,
3.952327833333333,0x00,,
3.952415000000000,0x01,,
3.952502166666667,0x02,,
3.952589333333334,0xD4,,
3.952676500000000,0x17,,
3.952763666666667,0xA7,,
3.952850833333333,0x64,,
3.952938000000000,0xFD,,
4.052478500000000,0xFA,,
4.052565666666666,0x03,,
4.052652833333333,0x00,,
4.052740000000000,0x01,,
4.052827166666667,0x02,,
4.052914333333334,0xD4,,
4.053001500000000,0x17,,
4.053088708333333,0xA8,,
4.053175875000000,0x6B,,
4.053263041666667,0xFD,,
4.152827916666666,0xFA,,
4.152915083333333,0x03,,
4.153002250000000,0x00,,
4.153089416666667,0x01,,
4.153176583333333,0x02,,
4.153263750000000,0xD4,,
4.153350916666667,0x17,,
4.153438083333334,0xA9,,
4.153525250000000,0x6A,,
4.153612416666666,0xFD,,
4.253168750000000,0xFA,,
4.253255916666666,0x03,,
4.253343125000000,0x00,,
4.253430291666667,0x01,,
4.253517458333334,0x02,,
4.253604666666667,0xD4,,
4.253691833333333,0x17,,
4.253779000000000,0xAA,,
4.253866208333333,0x69,,
4.253953375000000,0xFD,,
4.353514375000000,0xFA,,
4.353601583333333,0x03,,
4.353688750000000,0x00,,
4.353775916666667,0x01,,
4.353863041666667,0x02,,
4.353950208333333,0xD4,,
4.354037375000000,0x17,,
4.354124541666667,0xAB,,
4.354211708333334,0x68,,
4.354298875000000,0xFD,,
4.453851083333333,0xFA,,
4.453938250000000,0x03,,
4.454025416666667,0x00,,
4.454112625000000,0x01,,
4.454199791666666,0x02,,
4.454287000000000,0xD4,,
4.454374166666667,0x17,,
4.454461333333334,0xAC,,
4.454548500000000,0x6F,,
4.454635708333333,0xFD,,
4.554195666666667,0xFA,,
4.554282833333334,0x03,,
4.554370041666667,0x00,,
4.554457208333333,0x01,,
4.554544416666666,0x02,,
4.554631583333333,0xD4,,
4.554718750000000,0x17,,
4.554805916666667,0xAD,,
4.554893083333333,0x6E,,
4.554980250000000,0xFD,,
4.654543958333333,0xFA,,
4.654631125000000,0x03,,
4.654718291666667,0x00,,
4.654805458333334,0x01,,
4.654892625000000,0x02,,
4.654979791666666,0xD4,,
4.655066958333333,0x17,,
4.655154125000000,0xAE,,
4.655241291666667,0x6D,,
4.655328458333333,0xFD,,
4.754877458333334,0xFA,,
4.754964625000000,0x03,,
4.755051791666666,0x00,,
4.755139000000000,0x01,,
4.755226166666667,0x02,,
4.755313333333334,0xD4,,
4.755400500000000,0x17,,
4.755487666666666,0xAF,,
4.755574833333333,0x6C,,
4.755662000000000,0xFD,,
4.855218500000000,0xFA,,
4.855305708333334,0x03,,
4.855392875000000,0x00,,
4.855480041666667,0x01,,
4.855567208333333,0x02,,
4.855654416666667,0xD4,,
4.855741583333334,0x17,,
4.855828750000000,0xB0,,
4.855915916666667,0x73,,
4.856003083333333,0xFD,,
