Time [s],Value,Parity Error,Framing Error
4.348676000000000,0xFA,,
4.348762583333333,0x17,,
4.348849125000000,0x10,,
4.348935708333333,0x00,,
4.349022250000000,0x01,,
4.349108791666667,0x39,,
4.349195375000000,0x3F,,
4.349281875000000,0xFD,,
4.423482625000000,0xFA,,
4.423569166666667,0x17,,
4.423655750000000,0x03,,
4.423742291666667,0x00,,
4.423828875000000,0x01,,
4.423915458333333,0x3A,,
4.424002041666666,0x2F,,
4.424088625000000,0xFD,,
4.473471375000000,0xFA,,
4.473557875000000,0x11,,
4.473644416666667,0x01,,
4.473730916666667,0x01,,
4.473817458333333,0x3B,,
4.473904000000000,0x2A,,
4.473990541666667,0xFD,,
4.478378541666666,0xFA,,
4.478465083333333,0x13,,
4.478551625000000,0x03,,
4.478638208333333,0xFF,,
4.478724750000000,0x00,,
4.478811291666666,0x64,,
4.478897833333333,0x01,,
4.478984375000000,0x3C,,
4.479070916666666,0xB6,,
4.479157458333333,0xFD,,
4.479244000000000,0xFA,,
4.479330541666667,0x15,,
4.479417083333334,0x13,,
4.479503666666667,0x01,,
4.479590208333334,0x3D,,
4.479676791666667,0x3A,,
4.479763333333334,0xFD,,
4.479849875000000,0xFA,,
4.479936458333333,0x15,,
4.480023000000000,0x14,,
4.480109541666667,0x01,,
4.480196083333333,0x3E,,
4.480282625000000,0x3E,,
4.480369166666667,0xFD,,
4.480455708333333,0xFA,,
4.480542250000000,0x15,,
4.480628833333333,0x15,,
4.480715416666667,0x01,,
4.480801958333333,0x3F,,
4.480888541666666,0x3E,,
4.480975083333333,0xFD,,
4.481061625000000,0xFA,,
4.481148166666666,0x15,,
4.481234750000000,0x21,,
4.481321291666666,0x01,,
4.481407833333333,0x40,,
4.481494416666667,0x75,,
4.481581000000000,0xFD,,
4.481667500000000,0xFA,,
4.481754083333334,0x15,,
4.481840625000000,0x22,,
4.481927166666667,0x01,,
4.482013666666667,0x41,,
4.482100250000000,0x77,,
4.482186833333333,0xFD,,
4.482273375000000,0xFA,,
4.482359916666667,0x15,,
4.482446500000000,0x23,,
4.482533041666667,0x01,,
4.482619583333333,0x42,,
4.482706166666667,0x75,,
4.482792708333333,0xFD,,
4.482879250000000,0xFA,,
4.482965791666667,0x15,,
4.483052333333333,0x72,,
4.483138916666666,0x01,,
4.483225458333333,0x43,,
4.483312000000000,0x25,,
4.483398541666666,0xFD,,
4.483485083333333,0xFA,,
4.483571625000000,0x15,,
4.483658166666666,0x73,,
4.483744708333333,0x01,,
4.483831250000000,0x44,,
4.483917791666666,0x23,,
4.484004333333333,0xFD,,
4.493326041666666,0xFA,,
4.493412625000000,0x14,,
4.493499208333334,0x01,,
4.493585750000000,0xFF,,
4.493672333333333,0x00,,
4.493758916666667,0x01,,
4.493845500000000,0x45,,
4.493932041666667,0xAE,,
4.494018625000000,0xFD,,
4.672868458333333,0xFA,,
4.672955000000000,0x01,,
4.673041583333333,0xA0,,
4.673128166666666,0x04,,
4.673214708333333,0x01,,
4.673301250000000,0x46,,
4.673387791666666,0xE2,,
4.673474333333333,0xFD,,
4.872130416666667,0xFA,,
4.872217000000000,0x01,,
4.872303541666667,0xA0,,
4.872390083333333,0x04,,
4.872476666666667,0x01,,
4.872563208333333,0x47,,
4.872649791666666,0xE3,,
4.872736333333333,0xFD,,
5.071715500000000,0xFA,,
5.071802041666666,0x01,,
5.071888583333333,0xA0,,
5.071975125000000,0x04,,
5.072061666666666,0x01,,
5.072148250000000,0x48,,
5.072234791666666,0xEC,,
5.072321375000000,0xFD,,
5.270989250000000,0xFA,,
5.271075833333334,0x01,,
5.271162416666667,0xA0,,
5.271249000000000,0x04,,
5.271335583333333,0x01,,
5.271422166666667,0x49,,
5.271508750000000,0xED,,
5.271595333333333,0xFD,,
5.470585083333333,0xFA,,
5.470671583333333,0x01,,
5.470758125000000,0xA0,,
5.470844666666666,0x04,,
5.470931250000000,0x01,,
5.471017791666666,0x4A,,
5.471104375000000,0xEE,,
5.471190916666667,0xFD,,
5.669868958333334,0xFA,,
5.669955541666667,0x01,,
5.670042125000000,0xA0,,
5.670128666666667,0x04,,
5.670215250000000,0x01,,
5.670301791666667,0x4B,,
5.670388375000000,0xEF,,
5.670474958333333,0xFD,,
5.869495958333333,0xFA,,
5.869582541666666,0x01,,
5.869669125000000,0xA0,,
5.869755708333333,0x04,,
5.869842291666667,0x01,,
5.869928875000000,0x4C,,
5.870015458333333,0xE8,,
5.870102083333333,0xFD,,
5.944171083333333,0xFA,,
5.944257666666667,0x17,,
5.944344250000000,0x06,,
5.944430833333334,0x01,,
5.944517416666667,0x01,,
5.944604041666667,0x4D,,
5.944690625000000,0x5C,,
5.944777208333333,0xFD,,
6.043911791666667,0xFA,,
6.043998333333334,0x17,,
6.044084916666667,0x06,,
6.044171458333333,0x00,,
6.044258041666667,0x01,,
6.044344625000000,0x4E,,
6.044431166666667,0x5E,,
6.044517750000000,0xFD,,
6.068823916666667,0xFA,,
6.068910500000000,0x01,,
6.068997083333334,0xA0,,
6.069083666666667,0x04,,
6.069170208333333,0x01,,
6.069256791666667,0x4F,,
6.069343375000000,0xEB,,
6.069429958333333,0xFD,,
6.268390875000000,0xFA,,
6.268477458333333,0x01,,
6.268564000000000,0xA0,,
6.268650583333334,0x04,,
6.268737166666667,0x01,,
6.268823750000000,0x50,,
6.268910291666667,0xF4,,
6.268996833333333,0xFD,,
6.467662333333333,0xFA,,
6.467748916666666,0x01,,
6.467835500000000,0xA0,,
6.467922083333334,0x04,,
6.468008666666667,0x01,,
6.468095208333334,0x51,,
6.468181750000000,0xF5,,
6.468268291666667,0xFD,,
6.667064416666666,0xFA,,
6.667151000000000,0x01,,
6.667237583333334,0xA0,,
6.667324166666667,0x04,,
6.667410750000000,0x01,,
6.667497333333333,0x52,,
6.667583916666667,0xF6,,
6.667670500000000,0xFD,,
6.866613875000000,0xFA,,
6.866700458333334,0x01,,
6.866787041666667,0xA0,,
6.866873583333334,0x04,,
6.866960166666667,0x01,,
6.867046750000000,0x53,,
6.867133375000000,0xF7,,
6.867219916666667,0xFD,,
7.066014000000000,0xFA,,
7.066100500000000,0x01,,
7.066187041666667,0xA0,,
7.066273583333333,0x04,,
7.066360125000000,0x01,,
7.066446666666667,0x54,,
7.066533166666667,0xF0,,
7.066619708333334,0xFD,,
7.265262541666667,0xFA,,
7.265349083333334,0x01,,
7.265435625000000,0xA0,,
7.265522166666667,0x04,,
7.265608708333334,0x01,,
7.265695250000000,0x55,,
7.265781791666667,0xF1,,
7.265868333333334,0xFD,,
7.464666000000000,0xFA,,
7.464752541666667,0x01,,
7.464839125000000,0xA0,,
7.464925708333333,0x04,,
7.465012291666667,0x01,,
7.465098875000000,0x56,,
7.465185458333333,0xF2,,
7.465272041666666,0xFD,,
7.664189416666667,0xFA,,
7.664276041666667,0x01,,
7.664362583333333,0xA0,,
7.664449166666667,0x04,,
7.664535666666667,0x01,,
7.664622250000000,0x57,,
7.664708750000000,0xF3,,
7.664795291666667,0xFD,,
7.863428083333333,0xFA,,
7.863514666666667,0x01,,
7.863601250000000,0xA0,,
7.863687833333334,0x04,,
7.863774375000000,0x01,,
7.863860916666667,0x58,,
7.863947458333334,0xFC,,
7.864034041666667,0xFD,,
8.062978791666668,0xFA,,
8.063065333333334,0x01,,
8.063151875000001,0xA0,,
8.063238458333334,0x04,,
8.063324958333334,0x01,,
8.063411500000001,0x59,,
8.063497999999999,0xFE,,
8.063584541666666,0xFD,,
8.063671083333332,0xFD,,
8.262361291666666,0xFA,,
8.262447874999999,0x01,,
8.262534458333333,0xA0,,
8.262620999999999,0x04,,
8.262707583333333,0x01,,
8.262794124999999,0x5A,,
8.262880666666666,0xFE,,
8.262967166666666,0xFE,,
8.263053666666666,0xFD,,
8.461752250000000,0xFA,,
8.461838791666667,0x01,,
8.461925375000000,0xA0,,
8.462011958333333,0x04,,
8.462098541666666,0x01,,
8.462185125000000,0x5B,,
8.462271666666666,0xFF,,
8.462358249999999,0xFD,,
8.661146750000000,0xFA,,
8.661233291666667,0x01,,
8.661319833333334,0xA0,,
8.661406375000000,0x04,,
8.661492958333334,0x01,,
8.661579500000000,0x5C,,
8.661666000000000,0xF8,,
8.661752583333334,0xFD,,
8.860398291666666,0xFA,,
8.860484833333333,0x01,,
8.860571374999999,0xA0,,
8.860657916666666,0x04,,
8.860744458333333,0x01,,
8.860831041666666,0x5D,,
8.860917583333332,0xF9,,
8.861004166666667,0xFD,,
9.059918041666666,0xFA,,
9.060004541666666,0x01,,
9.060091000000000,0xA0,,
9.060177458333333,0x04,,
9.060263958333334,0x01,,
9.060350458333334,0x5E,,
9.060436958333334,0xFE,,
9.060523500000000,0xFA,,
9.060610000000000,0xFD,,
9.259303916666667,0xFA,,
9.259390541666667,0x01,,
9.259477125000000,0xA0,,
9.259563750000000,0x04,,
9.259650375000000,0x01,,
9.259736958333333,0x5F,,
9.259823583333333,0xFB,,
9.259910208333332,0xFD,,
9.458698958333333,0xFA,,
9.458785499999999,0x01,,
9.458872000000000,0xA0,,
9.458958541666666,0x04,,
9.459045083333333,0x01,,
9.459131583333333,0x60,,
9.459218125000000,0xC4,,
9.459304666666666,0xFD,,
9.657917458333333,0xFA,,
9.658004041666667,0x01,,
9.658090583333333,0xA0,,
9.658177125000000,0x04,,
9.658263666666667,0x01,,
9.658350208333333,0x61,,
9.658436750000000,0xC5,,
9.658523250000000,0xFD,,
9.857277000000000,0xFA,,
9.857363500000000,0x01,,
9.857450041666667,0xA0,,
9.857536541666667,0x04,,
9.857623083333333,0x01,,
9.857709625000000,0x62,,
9.857796166666667,0xC6,,
9.857882708333333,0xFD,,
10.041755416666666,0xFA,,
10.041841958333332,0xA1,,
10.041928499999999,0x00,,
10.042015083333334,0x01,,
10.042101708333334,0x63,,
10.042188291666667,0xC3,,
10.042274875000000,0xFD,,
10.056678041666666,0xFA,,
10.056764625000000,0x01,,
10.056851208333333,0xA0,,
10.056937791666666,0x04,,
10.057024333333333,0x01,,
10.057110916666666,0x64,,
10.057197499999999,0xC0,,
10.057284083333334,0xFD,,
10.256071958333333,0xFA,,
10.256158500000000,0x01,,
10.256245083333333,0xA0,,
10.256331666666666,0x04,,
10.256418249999999,0x01,,
10.256504833333333,0x65,,
10.256591416666666,0xC1,,
10.256678000000001,0xFD,,
10.455598125000000,0xFA,,
10.455684666666667,0x01,,
10.455771208333333,0xA0,,
10.455857750000000,0x04,,
10.455944250000000,0x01,,
10.456030791666667,0x66,,
10.456117291666667,0xC2,,
10.456203833333333,0xFD,,
10.654996625000001,0xFA,,
10.655083208333334,0x01,,
10.655169791666667,0xA0,,
10.655256333333334,0x04,,
10.655342875000001,0x01,,
10.655429416666667,0x67,,
10.655515958333334,0xC3,,
10.655602541666667,0xFD,,
